time,"V(A)","I(ROUT)","P(A)","P(OUT)"
0.000000e+00,0.000000e+00,-0.000000e+00,0.000000e+00,-0.000000e+00
1.000000e-14,1.050567e-05,2.388965e-11,2.128122e-04,2.122460e-04
2.000000e-14,7.039265e-06,4.781037e-11,4.263433e-04,4.252100e-04
3.000000e-14,7.089431e-06,7.191344e-11,6.411302e-04,6.394253e-04
4.000000e-14,7.159150e-06,9.637252e-11,8.577481e-04,8.554627e-04
5.000000e-14,7.248502e-06,1.213693e-10,1.076786e-03,1.073907e-03
6.000000e-14,7.357439e-06,1.470882e-10,1.298838e-03,1.295348e-03
7.000000e-14,7.485857e-06,1.737144e-10,1.524495e-03,1.520372e-03
8.000000e-14,7.633627e-06,2.014336e-10,1.754348e-03,1.749565e-03
9.000000e-14,7.800595e-06,2.304319e-10,1.988981e-03,1.983508e-03
1.000000e-13,7.986591e-06,2.608959e-10,2.228976e-03,2.222777e-03
1.100000e-13,8.191429e-06,2.930128e-10,2.474907e-03,2.467941e-03
1.200000e-13,8.414908e-06,3.269710e-10,2.727344e-03,2.719567e-03
1.300000e-13,8.656811e-06,3.629602e-10,2.986850e-03,2.978213e-03
1.400000e-13,8.916907e-06,4.011715e-10,3.253981e-03,3.244430e-03
1.500000e-13,9.194951e-06,4.417980e-10,3.529286e-03,3.518762e-03
1.600000e-13,9.490686e-06,4.850347e-10,3.813306e-03,3.801746e-03
1.700000e-13,9.803841e-06,5.310788e-10,4.106575e-03,4.093911e-03
1.800000e-13,1.013413e-05,5.801303e-10,4.409617e-03,4.395776e-03
1.900000e-13,1.048126e-05,6.323918e-10,4.722949e-03,4.707853e-03
2.000000e-13,1.084493e-05,6.880689e-10,5.047078e-03,5.030644e-03
2.100000e-13,1.122481e-05,7.473704e-10,5.382501e-03,5.364641e-03
2.200000e-13,1.162058e-05,8.105086e-10,5.729705e-03,5.710327e-03
2.300000e-13,1.203191e-05,8.776995e-10,6.089169e-03,6.068173e-03
2.400000e-13,1.245843e-05,9.491628e-10,6.461360e-03,6.438643e-03
2.500000e-13,1.289981e-05,1.025122e-09,6.846733e-03,6.822186e-03
2.600000e-13,1.335567e-05,1.105806e-09,7.245736e-03,7.219243e-03
2.700000e-13,1.382563e-05,1.191446e-09,7.658801e-03,7.630242e-03
2.800000e-13,1.430932e-05,1.282280e-09,8.086352e-03,8.055600e-03
2.900000e-13,1.480636e-05,1.378549e-09,8.528800e-03,8.495723e-03
3.000000e-13,1.531634e-05,1.480500e-09,8.986544e-03,8.951004e-03
3.100000e-13,1.583886e-05,1.588384e-09,9.459971e-03,9.421824e-03
3.200000e-13,1.637352e-05,1.702458e-09,9.949457e-03,9.908550e-03
3.300000e-13,1.691991e-05,1.822984e-09,1.045536e-02,1.041154e-02
3.400000e-13,1.747760e-05,1.950229e-09,1.097804e-02,1.093114e-02
3.500000e-13,1.804618e-05,2.084466e-09,1.151783e-02,1.146767e-02
3.600000e-13,1.862522e-05,2.225973e-09,1.207505e-02,1.202146e-02
3.700000e-13,1.921429e-05,2.375034e-09,1.265001e-02,1.259281e-02
3.800000e-13,1.981296e-05,2.531939e-09,1.324301e-02,1.318200e-02
3.900000e-13,2.042078e-05,2.696983e-09,1.385434e-02,1.378933e-02
4.000000e-13,2.103733e-05,2.870467e-09,1.448427e-02,1.441504e-02
4.100000e-13,2.166217e-05,3.052698e-09,1.513305e-02,1.505940e-02
4.200000e-13,2.229484e-05,3.243990e-09,1.580094e-02,1.572263e-02
4.300000e-13,2.293490e-05,3.444661e-09,1.648815e-02,1.640497e-02
4.400000e-13,2.358192e-05,3.655036e-09,1.719492e-02,1.710662e-02
4.500000e-13,2.423545e-05,3.875445e-09,1.792145e-02,1.782778e-02
4.600000e-13,2.489504e-05,4.106225e-09,1.866792e-02,1.856863e-02
4.700000e-13,2.556024e-05,4.347718e-09,1.943452e-02,1.932934e-02
4.800000e-13,2.623061e-05,4.600272e-09,2.022140e-02,2.011006e-02
4.900000e-13,2.690572e-05,4.864241e-09,2.102872e-02,2.091094e-02
5.000000e-13,2.758510e-05,5.139985e-09,2.185661e-02,2.173211e-02
5.100000e-13,2.826833e-05,5.427869e-09,2.270521e-02,2.257367e-02
5.200000e-13,2.895497e-05,5.728264e-09,2.357461e-02,2.343573e-02
5.300000e-13,2.964457e-05,6.041545e-09,2.446492e-02,2.431838e-02
5.400000e-13,3.033670e-05,6.368094e-09,2.537622e-02,2.522169e-02
5.500000e-13,3.103094e-05,6.708299e-09,2.630857e-02,2.614572e-02
5.600000e-13,3.172685e-05,7.062551e-09,2.726204e-02,2.709052e-02
5.700000e-13,3.242400e-05,7.431246e-09,2.823668e-02,2.805612e-02
5.800000e-13,3.312198e-05,7.814787e-09,2.923251e-02,2.904254e-02
5.900000e-13,3.382037e-05,8.213579e-09,3.024954e-02,3.004980e-02
6.000000e-13,3.451875e-05,8.628034e-09,3.128780e-02,3.107788e-02
6.100000e-13,3.521671e-05,9.058567e-09,3.234726e-02,3.212678e-02
6.200000e-13,3.591385e-05,9.505596e-09,3.342792e-02,3.319645e-02
6.300000e-13,3.660977e-05,9.969546e-09,3.452974e-02,3.428687e-02
6.400000e-13,3.730408e-05,1.045084e-08,3.565268e-02,3.539797e-02
6.500000e-13,3.799638e-05,1.094992e-08,3.679668e-02,3.652969e-02
6.600000e-13,3.868629e-05,1.146720e-08,3.796168e-02,3.768195e-02
6.700000e-13,3.937344e-05,1.200313e-08,3.914760e-02,3.885466e-02
6.800000e-13,4.005746e-05,1.255815e-08,4.035434e-02,4.004772e-02
6.900000e-13,4.073797e-05,1.313270e-08,4.158182e-02,4.126102e-02
7.000000e-13,4.141462e-05,1.372721e-08,4.282991e-02,4.249444e-02
7.100000e-13,4.208705e-05,1.434215e-08,4.409849e-02,4.374783e-02
7.200000e-13,4.275493e-05,1.497796e-08,4.538743e-02,4.502107e-02
7.300000e-13,4.341791e-05,1.563508e-08,4.669659e-02,4.631398e-02
7.400000e-13,4.407566e-05,1.631396e-08,4.802582e-02,4.762640e-02
7.500000e-13,4.472785e-05,1.701506e-08,4.937494e-02,4.895817e-02
7.600000e-13,4.537418e-05,1.773883e-08,5.074379e-02,5.030909e-02
7.700000e-13,4.601433e-05,1.848572e-08,5.213218e-02,5.167897e-02
7.800000e-13,4.664799e-05,1.925618e-08,5.353992e-02,5.306760e-02
7.900000e-13,4.727488e-05,2.005066e-08,5.496680e-02,5.447477e-02
8.000000e-13,4.789471e-05,2.086960e-08,5.641263e-02,5.590026e-02
8.100000e-13,4.850720e-05,2.171347e-08,5.787718e-02,5.734385e-02
8.200000e-13,4.911208e-05,2.258271e-08,5.936022e-02,5.880527e-02
8.300000e-13,4.970909e-05,2.347775e-08,6.086152e-02,6.028431e-02
8.400000e-13,5.029798e-05,2.439905e-08,6.238084e-02,6.178068e-02
8.500000e-13,5.087849e-05,2.534703e-08,6.391791e-02,6.329415e-02
8.600000e-13,5.145040e-05,2.632215e-08,6.547250e-02,6.482443e-02
8.700000e-13,5.201348e-05,2.732482e-08,6.704433e-02,6.637124e-02
8.800000e-13,5.256750e-05,2.835549e-08,6.863312e-02,6.793432e-02
8.900000e-13,5.311226e-05,2.941457e-08,7.023861e-02,6.951335e-02
9.000000e-13,5.364755e-05,3.050248e-08,7.186051e-02,7.110806e-02
9.100000e-13,5.417318e-05,3.161963e-08,7.349852e-02,7.271813e-02
9.200000e-13,5.468897e-05,3.276645e-08,7.515235e-02,7.434327e-02
9.300000e-13,5.519473e-05,3.394332e-08,7.682171e-02,7.598315e-02
9.400000e-13,5.569031e-05,3.515064e-08,7.850627e-02,7.763745e-02
9.500000e-13,5.617553e-05,3.638881e-08,8.020573e-02,7.930587e-02
9.600000e-13,5.665026e-05,3.765820e-08,8.191978e-02,8.098806e-02
9.700000e-13,5.711434e-05,3.895919e-08,8.364809e-02,8.268369e-02
9.800000e-13,5.756766e-05,4.029215e-08,8.539033e-02,8.439244e-02
9.900000e-13,5.801007e-05,4.165743e-08,8.714618e-02,8.611396e-02
1.000000e-12,5.844148e-05,4.305537e-08,8.891531e-02,8.784791e-02
1.010000e-12,5.886176e-05,4.448633e-08,9.069738e-02,8.959393e-02
1.020000e-12,5.927083e-05,4.595063e-08,9.249204e-02,9.135169e-02
1.030000e-12,5.966859e-05,4.744858e-08,9.429896e-02,9.312084e-02
1.040000e-12,6.005497e-05,4.898049e-08,9.611780e-02,9.490100e-02
1.050000e-12,6.042988e-05,5.054667e-08,9.794820e-02,9.669184e-02
1.060000e-12,6.079327e-05,5.214739e-08,9.978982e-02,9.849300e-02
1.070000e-12,6.114508e-05,5.378293e-08,1.016423e-01,1.003041e-01
1.080000e-12,6.148526e-05,5.545355e-08,1.035053e-01,1.021248e-01
1.090000e-12,6.181378e-05,5.715949e-08,1.053784e-01,1.039547e-01
1.100000e-12,6.213060e-05,5.890100e-08,1.072614e-01,1.057935e-01
1.110000e-12,6.243570e-05,6.067829e-08,1.091538e-01,1.076408e-01
1.120000e-12,6.272906e-05,6.249156e-08,1.110553e-01,1.094963e-01
1.130000e-12,6.301068e-05,6.434101e-08,1.129655e-01,1.113595e-01
1.140000e-12,6.328055e-05,6.622682e-08,1.148842e-01,1.132302e-01
1.150000e-12,6.353869e-05,6.814915e-08,1.168108e-01,1.151079e-01
1.160000e-12,6.378512e-05,7.010815e-08,1.187451e-01,1.169922e-01
1.170000e-12,6.401984e-05,7.210394e-08,1.206867e-01,1.188830e-01
1.180000e-12,6.424290e-05,7.413663e-08,1.226353e-01,1.207797e-01
1.190000e-12,6.445434e-05,7.620634e-08,1.245904e-01,1.226820e-01
1.200000e-12,6.465419e-05,7.831313e-08,1.265518e-01,1.245895e-01
1.210000e-12,6.484251e-05,8.045707e-08,1.285192e-01,1.265020e-01
1.220000e-12,6.501936e-05,8.263820e-08,1.304920e-01,1.284190e-01
1.230000e-12,6.518480e-05,8.485656e-08,1.324701e-01,1.303402e-01
1.240000e-12,6.533890e-05,8.711214e-08,1.344530e-01,1.322652e-01
1.250000e-12,6.548175e-05,8.940494e-08,1.364404e-01,1.341938e-01
1.260000e-12,6.561343e-05,9.173494e-08,1.384320e-01,1.361255e-01
1.270000e-12,6.573403e-05,9.410207e-08,1.404275e-01,1.380600e-01
1.280000e-12,6.584364e-05,9.650628e-08,1.424264e-01,1.399971e-01
1.290000e-12,6.594238e-05,9.894747e-08,1.444285e-01,1.419363e-01
1.300000e-12,6.603034e-05,1.014255e-07,1.464334e-01,1.438773e-01
1.310000e-12,6.610764e-05,1.039404e-07,1.484409e-01,1.458198e-01
1.320000e-12,6.617441e-05,1.064918e-07,1.504505e-01,1.477635e-01
1.330000e-12,6.623076e-05,1.090797e-07,1.524620e-01,1.497080e-01
1.340000e-12,6.627683e-05,1.117038e-07,1.544751e-01,1.516531e-01
1.350000e-12,6.631275e-05,1.143639e-07,1.564894e-01,1.535985e-01
1.360000e-12,6.633866e-05,1.170599e-07,1.585047e-01,1.555438e-01
1.370000e-12,6.635470e-05,1.197913e-07,1.605206e-01,1.574887e-01
1.380000e-12,6.636104e-05,1.225581e-07,1.625368e-01,1.594330e-01
1.390000e-12,6.635781e-05,1.253599e-07,1.645531e-01,1.613764e-01
1.400000e-12,6.634517e-05,1.281963e-07,1.665691e-01,1.633185e-01
1.410000e-12,6.632330e-05,1.310670e-07,1.685846e-01,1.652592e-01
1.420000e-12,6.629234e-05,1.339717e-07,1.705993e-01,1.671980e-01
1.430000e-12,6.625248e-05,1.369100e-07,1.726130e-01,1.691349e-01
1.440000e-12,6.620388e-05,1.398814e-07,1.746253e-01,1.710694e-01
1.450000e-12,6.614672e-05,1.428856e-07,1.766360e-01,1.730014e-01
1.460000e-12,6.608118e-05,1.459221e-07,1.786448e-01,1.749306e-01
1.470000e-12,6.600744e-05,1.489905e-07,1.806515e-01,1.768567e-01
1.480000e-12,6.592569e-05,1.520901e-07,1.826559e-01,1.787796e-01
1.490000e-12,6.583611e-05,1.552206e-07,1.846576e-01,1.806990e-01
1.500000e-12,6.573889e-05,1.583814e-07,1.866566e-01,1.826146e-01
1.510000e-12,6.563423e-05,1.615720e-07,1.886524e-01,1.845263e-01
1.520000e-12,6.552231e-05,1.647917e-07,1.906450e-01,1.864338e-01
1.530000e-12,6.540335e-05,1.680399e-07,1.926340e-01,1.883370e-01
1.540000e-12,6.527753e-05,1.713161e-07,1.946194e-01,1.902356e-01
1.550000e-12,6.514506e-05,1.746196e-07,1.966008e-01,1.921294e-01
1.560000e-12,6.500613e-05,1.779497e-07,1.985781e-01,1.940183e-01
1.570000e-12,6.486095e-05,1.813058e-07,2.005511e-01,1.959021e-01
1.580000e-12,6.470973e-05,1.846871e-07,2.025195e-01,1.977806e-01
1.590000e-12,6.455267e-05,1.880930e-07,2.044833e-01,1.996536e-01
1.600000e-12,6.438998e-05,1.915226e-07,2.064423e-01,2.015210e-01
1.610000e-12,6.422185e-05,1.949753e-07,2.083962e-01,2.033827e-01
1.620000e-12,6.404852e-05,1.984502e-07,2.103449e-01,2.052384e-01
1.630000e-12,6.387017e-05,2.019465e-07,2.122883e-01,2.070881e-01
1.640000e-12,6.368702e-05,2.054635e-07,2.142262e-01,2.089317e-01
1.650000e-12,6.349927e-05,2.090003e-07,2.161585e-01,2.107689e-01
1.660000e-12,6.330714e-05,2.125560e-07,2.180850e-01,2.125997e-01
1.670000e-12,6.311084e-05,2.161297e-07,2.200056e-01,2.144240e-01
1.680000e-12,6.291057e-05,2.197207e-07,2.219201e-01,2.162416e-01
1.690000e-12,6.270654e-05,2.233279e-07,2.238286e-01,2.180525e-01
1.700000e-12,6.249896e-05,2.269504e-07,2.257307e-01,2.198566e-01
1.710000e-12,6.228803e-05,2.305874e-07,2.276266e-01,2.216538e-01
1.720000e-12,6.207397e-05,2.342378e-07,2.295159e-01,2.234441e-01
1.730000e-12,6.185697e-05,2.379006e-07,2.313987e-01,2.252272e-01
1.740000e-12,6.163724e-05,2.415750e-07,2.332749e-01,2.270033e-01
1.750000e-12,6.141498e-05,2.452599e-07,2.351444e-01,2.287722e-01
1.760000e-12,6.119040e-05,2.489543e-07,2.370071e-01,2.305339e-01
1.770000e-12,6.096370e-05,2.526571e-07,2.388629e-01,2.322883e-01
1.780000e-12,6.073507e-05,2.563674e-07,2.407118e-01,2.340354e-01
1.790000e-12,6.050471e-05,2.600841e-07,2.425538e-01,2.357752e-01
1.800000e-12,6.027281e-05,2.638061e-07,2.443887e-01,2.375077e-01
1.810000e-12,6.003958e-05,2.675324e-07,2.462166e-01,2.392328e-01
1.820000e-12,5.980519e-05,2.712619e-07,2.480373e-01,2.409505e-01
1.830000e-12,5.956985e-05,2.749935e-07,2.498509e-01,2.426608e-01
1.840000e-12,5.933373e-05,2.787261e-07,2.516574e-01,2.443637e-01
1.850000e-12,5.909703e-05,2.824586e-07,2.534567e-01,2.460592e-01
1.860000e-12,5.885992e-05,2.861899e-07,2.552487e-01,2.477474e-01
1.870000e-12,5.862259e-05,2.899189e-07,2.570336e-01,2.494282e-01
1.880000e-12,5.838521e-05,2.936445e-07,2.588113e-01,2.511017e-01
1.890000e-12,5.814796e-05,2.973655e-07,2.605817e-01,2.527679e-01
1.900000e-12,5.791101e-05,3.010808e-07,2.623450e-01,2.544268e-01
1.910000e-12,5.767454e-05,3.047892e-07,2.641010e-01,2.560785e-01
1.920000e-12,5.743869e-05,3.084898e-07,2.658499e-01,2.577230e-01
1.930000e-12,5.720366e-05,3.121812e-07,2.675916e-01,2.593604e-01
1.940000e-12,5.696958e-05,3.158624e-07,2.693262e-01,2.609907e-01
1.950000e-12,5.673662e-05,3.195321e-07,2.710537e-01,2.626140e-01
1.960000e-12,5.650494e-05,3.231894e-07,2.727742e-01,2.642303e-01
1.970000e-12,5.627469e-05,3.268330e-07,2.744876e-01,2.658398e-01
1.980000e-12,5.604601e-05,3.304618e-07,2.761941e-01,2.674424e-01
1.990000e-12,5.581905e-05,3.340746e-07,2.778936e-01,2.690384e-01
2.000000e-12,5.559395e-05,3.376704e-07,2.795863e-01,2.706277e-01
2.010000e-12,5.537086e-05,3.412480e-07,2.812722e-01,2.722104e-01
2.020000e-12,5.514990e-05,3.448062e-07,2.829513e-01,2.737866e-01
2.030000e-12,5.493121e-05,3.483440e-07,2.846237e-01,2.753565e-01
2.040000e-12,5.471491e-05,3.518602e-07,2.862896e-01,2.769202e-01
2.050000e-12,5.450114e-05,3.553538e-07,2.879489e-01,2.784776e-01
2.060000e-12,5.429000e-05,3.588236e-07,2.896017e-01,2.800290e-01
2.070000e-12,5.408162e-05,3.622686e-07,2.912482e-01,2.815745e-01
2.080000e-12,5.387612e-05,3.656876e-07,2.928884e-01,2.831141e-01
2.090000e-12,5.367360e-05,3.690796e-07,2.945224e-01,2.846480e-01
2.100000e-12,5.347417e-05,3.724435e-07,2.961503e-01,2.861763e-01
2.110000e-12,5.327792e-05,3.757784e-07,2.977721e-01,2.876992e-01
2.120000e-12,5.308497e-05,3.790831e-07,2.993881e-01,2.892167e-01
2.130000e-12,5.289541e-05,3.823566e-07,3.009983e-01,2.907289e-01
2.140000e-12,5.270933e-05,3.855980e-07,3.026027e-01,2.922361e-01
2.150000e-12,5.252681e-05,3.888062e-07,3.042015e-01,2.937383e-01
2.160000e-12,5.234794e-05,3.919802e-07,3.057949e-01,2.952357e-01
2.170000e-12,5.217280e-05,3.951191e-07,3.073829e-01,2.967285e-01
2.180000e-12,5.200147e-05,3.982220e-07,3.089656e-01,2.982167e-01
2.190000e-12,5.183403e-05,4.012879e-07,3.105432e-01,2.997005e-01
2.200000e-12,5.167053e-05,4.043160e-07,3.121157e-01,3.011800e-01
2.210000e-12,5.151105e-05,4.073052e-07,3.136833e-01,3.026555e-01
2.220000e-12,5.135564e-05,4.102548e-07,3.152462e-01,3.041270e-01
2.230000e-12,5.120438e-05,4.131639e-07,3.168044e-01,3.055947e-01
2.240000e-12,5.105730e-05,4.160317e-07,3.183580e-01,3.070587e-01
2.250000e-12,5.091446e-05,4.188574e-07,3.199073e-01,3.085192e-01
2.260000e-12,5.077592e-05,4.216401e-07,3.214523e-01,3.099764e-01
2.270000e-12,5.064171e-05,4.243792e-07,3.229931e-01,3.114304e-01
2.280000e-12,5.051187e-05,4.270738e-07,3.245299e-01,3.128813e-01
2.290000e-12,5.038644e-05,4.297233e-07,3.260629e-01,3.143293e-01
2.300000e-12,5.026546e-05,4.323270e-07,3.275921e-01,3.157746e-01
2.310000e-12,5.014895e-05,4.348842e-07,3.291177e-01,3.172173e-01
2.320000e-12,5.003693e-05,4.373943e-07,3.306398e-01,3.186576e-01
2.330000e-12,4.992944e-05,4.398567e-07,3.321586e-01,3.200957e-01
2.340000e-12,4.982649e-05,4.422707e-07,3.336742e-01,3.215316e-01
2.350000e-12,4.972810e-05,4.446358e-07,3.351867e-01,3.229655e-01
2.360000e-12,4.963428e-05,4.469515e-07,3.366963e-01,3.243977e-01
2.370000e-12,4.954503e-05,4.492173e-07,3.382032e-01,3.258282e-01
2.380000e-12,4.946037e-05,4.514327e-07,3.397074e-01,3.272573e-01
2.390000e-12,4.938030e-05,4.535973e-07,3.412091e-01,3.286850e-01
2.400000e-12,4.930482e-05,4.557106e-07,3.427084e-01,3.301115e-01
2.410000e-12,4.923392e-05,4.577722e-07,3.442055e-01,3.315370e-01
2.420000e-12,4.916760e-05,4.597819e-07,3.457005e-01,3.329616e-01
2.430000e-12,4.910585e-05,4.617392e-07,3.471936e-01,3.343855e-01
2.440000e-12,4.904866e-05,4.636439e-07,3.486848e-01,3.358089e-01
2.450000e-12,4.899601e-05,4.654957e-07,3.501744e-01,3.372318e-01
2.460000e-12,4.894789e-05,4.672944e-07,3.516625e-01,3.386544e-01
2.470000e-12,4.890426e-05,4.690398e-07,3.531492e-01,3.400770e-01
2.480000e-12,4.886512e-05,4.707317e-07,3.546346e-01,3.414995e-01
2.490000e-12,4.883044e-05,4.723699e-07,3.561189e-01,3.429222e-01
2.500000e-12,4.880017e-05,4.739544e-07,3.576022e-01,3.443453e-01
2.510000e-12,4.877431e-05,4.754850e-07,3.590846e-01,3.457688e-01
2.520000e-12,4.875280e-05,4.769618e-07,3.605664e-01,3.471928e-01
2.530000e-12,4.873562e-05,4.783848e-07,3.620475e-01,3.486176e-01
2.540000e-12,4.872273e-05,4.797538e-07,3.635282e-01,3.500433e-01
2.550000e-12,4.871408e-05,4.810691e-07,3.650085e-01,3.514700e-01
2.560000e-12,4.870963e-05,4.823307e-07,3.664887e-01,3.528977e-01
2.570000e-12,4.870934e-05,4.835386e-07,3.679688e-01,3.543268e-01
2.580000e-12,4.871316e-05,4.846931e-07,3.694489e-01,3.557572e-01
2.590000e-12,4.872105e-05,4.857943e-07,3.709293e-01,3.571892e-01
2.600000e-12,4.873294e-05,4.868425e-07,3.724099e-01,3.586227e-01
2.610000e-12,4.874879e-05,4.878379e-07,3.738909e-01,3.600581e-01
2.620000e-12,4.876854e-05,4.887808e-07,3.753725e-01,3.614953e-01
2.630000e-12,4.879214e-05,4.896714e-07,3.768547e-01,3.629345e-01
2.640000e-12,4.881953e-05,4.905101e-07,3.783377e-01,3.643758e-01
2.650000e-12,4.885064e-05,4.912974e-07,3.798216e-01,3.658193e-01
2.660000e-12,4.888541e-05,4.920335e-07,3.813065e-01,3.672651e-01
2.670000e-12,4.892379e-05,4.927190e-07,3.827925e-01,3.687133e-01
2.680000e-12,4.896571e-05,4.933543e-07,3.842798e-01,3.701641e-01
2.690000e-12,4.901109e-05,4.939398e-07,3.857683e-01,3.716175e-01
2.700000e-12,4.905988e-05,4.944762e-07,3.872583e-01,3.730736e-01
2.710000e-12,4.911201e-05,4.949639e-07,3.887498e-01,3.745325e-01
2.720000e-12,4.916740e-05,4.954036e-07,3.902430e-01,3.759944e-01
2.730000e-12,4.922599e-05,4.957959e-07,3.917379e-01,3.774592e-01
2.740000e-12,4.928770e-05,4.961414e-07,3.932346e-01,3.789271e-01
2.750000e-12,4.935246e-05,4.964407e-07,3.947332e-01,3.803982e-01
2.760000e-12,4.942020e-05,4.966946e-07,3.962339e-01,3.818725e-01
2.770000e-12,4.949085e-05,4.969038e-07,3.977366e-01,3.833501e-01
2.780000e-12,4.956431e-05,4.970690e-07,3.992415e-01,3.848312e-01
2.790000e-12,4.964053e-05,4.971910e-07,4.007487e-01,3.863157e-01
2.800000e-12,4.971943e-05,4.972707e-07,4.022583e-01,3.878037e-01
2.810000e-12,4.980092e-05,4.973088e-07,4.037703e-01,3.892953e-01
2.820000e-12,4.988493e-05,4.973061e-07,4.052848e-01,3.907906e-01
2.830000e-12,4.997138e-05,4.972636e-07,4.068019e-01,3.922896e-01
2.840000e-12,5.006019e-05,4.971822e-07,4.083217e-01,3.937923e-01
2.850000e-12,5.015129e-05,4.970627e-07,4.098442e-01,3.952989e-01
2.860000e-12,5.024459e-05,4.969061e-07,4.113695e-01,3.968094e-01
2.870000e-12,5.034002e-05,4.967134e-07,4.128977e-01,3.983237e-01
2.880000e-12,5.043749e-05,4.964856e-07,4.144288e-01,3.998421e-01
2.890000e-12,5.053692e-05,4.962236e-07,4.159628e-01,4.013644e-01
2.900000e-12,5.063825e-05,4.959284e-07,4.175000e-01,4.028908e-01
2.910000e-12,5.074137e-05,4.956011e-07,4.190402e-01,4.044213e-01
2.920000e-12,5.084623e-05,4.952428e-07,4.205836e-01,4.059558e-01
2.930000e-12,5.095273e-05,4.948545e-07,4.221302e-01,4.074945e-01
2.940000e-12,5.106080e-05,4.944373e-07,4.236801e-01,4.090374e-01
2.950000e-12,5.117036e-05,4.939922e-07,4.252333e-01,4.105844e-01
2.960000e-12,5.128132e-05,4.935206e-07,4.267898e-01,4.121357e-01
2.970000e-12,5.139362e-05,4.930233e-07,4.283497e-01,4.136911e-01
2.980000e-12,5.150717e-05,4.925016e-07,4.299131e-01,4.152508e-01
2.990000e-12,5.162189e-05,4.919567e-07,4.314799e-01,4.168148e-01
3.000000e-12,5.173771e-05,4.913897e-07,4.330502e-01,4.183830e-01
3.010000e-12,5.185456e-05,4.908017e-07,4.346241e-01,4.199554e-01
3.020000e-12,5.197234e-05,4.901940e-07,4.362015e-01,4.215321e-01
3.030000e-12,5.209100e-05,4.895677e-07,4.377825e-01,4.231131e-01
3.040000e-12,5.221045e-05,4.889241e-07,4.393671e-01,4.246984e-01
3.050000e-12,5.233062e-05,4.882643e-07,4.409554e-01,4.262879e-01
3.060000e-12,5.245144e-05,4.875895e-07,4.425473e-01,4.278817e-01
