time,"V(A)","I(ROUT)","P(A)","P(OUT)"
0.000000e+00,0.000000e+00,-0.000000e+00,0.000000e+00,-0.000000e+00
1.000000e-14,1.050473e-05,2.674333e-11,2.127932e-04,2.122650e-04
2.000000e-14,7.038638e-06,5.352052e-11,4.263053e-04,4.252480e-04
3.000000e-14,7.088798e-06,8.050017e-11,6.410730e-04,6.394825e-04
4.000000e-14,7.158506e-06,1.078758e-10,8.576714e-04,8.555394e-04
5.000000e-14,7.247841e-06,1.358496e-10,1.076690e-03,1.074004e-03
6.000000e-14,7.356757e-06,1.646270e-10,1.298721e-03,1.295465e-03
7.000000e-14,7.485150e-06,1.944141e-10,1.524357e-03,1.520510e-03
8.000000e-14,7.632889e-06,2.254173e-10,1.754188e-03,1.749725e-03
9.000000e-14,7.799822e-06,2.578434e-10,1.988798e-03,1.983691e-03
1.000000e-13,7.985778e-06,2.918996e-10,2.228769e-03,2.222984e-03
1.100000e-13,8.190572e-06,3.277940e-10,2.474675e-03,2.468174e-03
1.200000e-13,8.414002e-06,3.657354e-10,2.727085e-03,2.719827e-03
1.300000e-13,8.655851e-06,4.059342e-10,2.986562e-03,2.978501e-03
1.400000e-13,8.915888e-06,4.486024e-10,3.253663e-03,3.244748e-03
1.500000e-13,9.193869e-06,4.939536e-10,3.528936e-03,3.519112e-03
1.600000e-13,9.489535e-06,5.422038e-10,3.812922e-03,3.802130e-03
1.700000e-13,9.802617e-06,5.935713e-10,4.106155e-03,4.094331e-03
1.800000e-13,1.013283e-05,6.482772e-10,4.409159e-03,4.396234e-03
1.900000e-13,1.047988e-05,7.065452e-10,4.722450e-03,4.708352e-03
2.000000e-13,1.084346e-05,7.686026e-10,5.046535e-03,5.031187e-03
2.100000e-13,1.122325e-05,8.346799e-10,5.381912e-03,5.365230e-03
2.200000e-13,1.161892e-05,9.050111e-10,5.729067e-03,5.710965e-03
2.300000e-13,1.203014e-05,9.798344e-10,6.088479e-03,6.068864e-03
2.400000e-13,1.245656e-05,1.059392e-09,6.460614e-03,6.439388e-03
2.500000e-13,1.289782e-05,1.143930e-09,6.845929e-03,6.822990e-03
2.600000e-13,1.335356e-05,1.233699e-09,7.244869e-03,7.220109e-03
2.700000e-13,1.382340e-05,1.328955e-09,7.657868e-03,7.631175e-03
2.800000e-13,1.430696e-05,1.429958e-09,8.085349e-03,8.056603e-03
2.900000e-13,1.480386e-05,1.536974e-09,8.527723e-03,8.496800e-03
3.000000e-13,1.531369e-05,1.650273e-09,8.985389e-03,8.952159e-03
3.100000e-13,1.583607e-05,1.770130e-09,9.458734e-03,9.423061e-03
3.200000e-13,1.637058e-05,1.896828e-09,9.948133e-03,9.909875e-03
3.300000e-13,1.691680e-05,2.030653e-09,1.045395e-02,1.041296e-02
3.400000e-13,1.747433e-05,2.171897e-09,1.097653e-02,1.093265e-02
3.500000e-13,1.804274e-05,2.320859e-09,1.151621e-02,1.146929e-02
3.600000e-13,1.862160e-05,2.477842e-09,1.207332e-02,1.202318e-02
3.700000e-13,1.921048e-05,2.643156e-09,1.264817e-02,1.259464e-02
3.800000e-13,1.980896e-05,2.817119e-09,1.324105e-02,1.318396e-02
3.900000e-13,2.041659e-05,3.000050e-09,1.385226e-02,1.379141e-02
4.000000e-13,2.103293e-05,3.192280e-09,1.448206e-02,1.441725e-02
4.100000e-13,2.165755e-05,3.394141e-09,1.513070e-02,1.506174e-02
4.200000e-13,2.229000e-05,3.605974e-09,1.579845e-02,1.572512e-02
4.300000e-13,2.292985e-05,3.828126e-09,1.648551e-02,1.640761e-02
4.400000e-13,2.357663e-05,4.060949e-09,1.719213e-02,1.710942e-02
4.500000e-13,2.422992e-05,4.304802e-09,1.791849e-02,1.783074e-02
4.600000e-13,2.488926e-05,4.560050e-09,1.866479e-02,1.857176e-02
4.700000e-13,2.555421e-05,4.827062e-09,1.943120e-02,1.933265e-02
4.800000e-13,2.622432e-05,5.106217e-09,2.021790e-02,2.011356e-02
4.900000e-13,2.689915e-05,5.397897e-09,2.102502e-02,2.091464e-02
5.000000e-13,2.757826e-05,5.702490e-09,2.185271e-02,2.173601e-02
5.100000e-13,2.826121e-05,6.020391e-09,2.270110e-02,2.257778e-02
5.200000e-13,2.894756e-05,6.351998e-09,2.357028e-02,2.344007e-02
5.300000e-13,2.963686e-05,6.697718e-09,2.446035e-02,2.432295e-02
5.400000e-13,3.032869e-05,7.057962e-09,2.537141e-02,2.522649e-02
5.500000e-13,3.102261e-05,7.433144e-09,2.630352e-02,2.615077e-02
5.600000e-13,3.171819e-05,7.823687e-09,2.725674e-02,2.709583e-02
5.700000e-13,3.241502e-05,8.230015e-09,2.823110e-02,2.806170e-02
5.800000e-13,3.311266e-05,8.652560e-09,2.922665e-02,2.904840e-02
5.900000e-13,3.381070e-05,9.091756e-09,3.024340e-02,3.005594e-02
6.000000e-13,3.450873e-05,9.548044e-09,3.128136e-02,3.108433e-02
6.100000e-13,3.520633e-05,1.002187e-08,3.234051e-02,3.213353e-02
6.200000e-13,3.590310e-05,1.051367e-08,3.342085e-02,3.320353e-02
6.300000e-13,3.659865e-05,1.102391e-08,3.452234e-02,3.429427e-02
6.400000e-13,3.729257e-05,1.155304e-08,3.564493e-02,3.540572e-02
6.500000e-13,3.798448e-05,1.210151e-08,3.678858e-02,3.653779e-02
6.600000e-13,3.867399e-05,1.266978e-08,3.795321e-02,3.769042e-02
6.700000e-13,3.936074e-05,1.325833e-08,3.913874e-02,3.886351e-02
6.800000e-13,4.004433e-05,1.386761e-08,4.034510e-02,4.005697e-02
6.900000e-13,4.072442e-05,1.449810e-08,4.157217e-02,4.127067e-02
7.000000e-13,4.140064e-05,1.515025e-08,4.281984e-02,4.250451e-02
7.100000e-13,4.207264e-05,1.582455e-08,4.408799e-02,4.375833e-02
7.200000e-13,4.274008e-05,1.652146e-08,4.537649e-02,4.503201e-02
7.300000e-13,4.340260e-05,1.724146e-08,4.668519e-02,4.632538e-02
7.400000e-13,4.405990e-05,1.798502e-08,4.801394e-02,4.763828e-02
7.500000e-13,4.471163e-05,1.875261e-08,4.936258e-02,4.897053e-02
7.600000e-13,4.535748e-05,1.954470e-08,5.073092e-02,5.032195e-02
7.700000e-13,4.599715e-05,2.036177e-08,5.211880e-02,5.169234e-02
7.800000e-13,4.663033e-05,2.120429e-08,5.352601e-02,5.308150e-02
7.900000e-13,4.725673e-05,2.207272e-08,5.495236e-02,5.448922e-02
8.000000e-13,4.787606e-05,2.296753e-08,5.639762e-02,5.591527e-02
8.100000e-13,4.848805e-05,2.388919e-08,5.786160e-02,5.735943e-02
8.200000e-13,4.909242e-05,2.483816e-08,5.934405e-02,5.882145e-02
8.300000e-13,4.968892e-05,2.581490e-08,6.084474e-02,6.030108e-02
8.400000e-13,5.027728e-05,2.681986e-08,6.236344e-02,6.179808e-02
8.500000e-13,5.085728e-05,2.785350e-08,6.389988e-02,6.331218e-02
8.600000e-13,5.142866e-05,2.891626e-08,6.545381e-02,6.484311e-02
8.700000e-13,5.199120e-05,3.000858e-08,6.702497e-02,6.639060e-02
8.800000e-13,5.254469e-05,3.113090e-08,6.861308e-02,6.795436e-02
8.900000e-13,5.308891e-05,3.228366e-08,7.021787e-02,6.953410e-02
9.000000e-13,5.362365e-05,3.346727e-08,7.183905e-02,7.112952e-02
9.100000e-13,5.414873e-05,3.468216e-08,7.347632e-02,7.274033e-02
9.200000e-13,5.466397e-05,3.592873e-08,7.512941e-02,7.436621e-02
9.300000e-13,5.516918e-05,3.720739e-08,7.679799e-02,7.600686e-02
9.400000e-13,5.566419e-05,3.851854e-08,7.848177e-02,7.766195e-02
9.500000e-13,5.614886e-05,3.986255e-08,8.018043e-02,7.933117e-02
9.600000e-13,5.662303e-05,4.123982e-08,8.189366e-02,8.101418e-02
9.700000e-13,5.708655e-05,4.265071e-08,8.362113e-02,8.271065e-02
9.800000e-13,5.753930e-05,4.409557e-08,8.536252e-02,8.442025e-02
9.900000e-13,5.798115e-05,4.557476e-08,8.711750e-02,8.614264e-02
1.000000e-12,5.841200e-05,4.708860e-08,8.888574e-02,8.787747e-02
1.010000e-12,5.883172e-05,4.863744e-08,9.066691e-02,8.962440e-02
1.020000e-12,5.924022e-05,5.022158e-08,9.246065e-02,9.138308e-02
1.030000e-12,5.963742e-05,5.184133e-08,9.426663e-02,9.315317e-02
1.040000e-12,6.002324e-05,5.349696e-08,9.608451e-02,9.493429e-02
1.050000e-12,6.039759e-05,5.518877e-08,9.791394e-02,9.672610e-02
1.060000e-12,6.076043e-05,5.691701e-08,9.975457e-02,9.852824e-02
1.070000e-12,6.111169e-05,5.868194e-08,1.016060e-01,1.003404e-01
1.080000e-12,6.145132e-05,6.048377e-08,1.034680e-01,1.021621e-01
1.090000e-12,6.177929e-05,6.232275e-08,1.053401e-01,1.039931e-01
1.100000e-12,6.209557e-05,6.419906e-08,1.072220e-01,1.058329e-01
1.110000e-12,6.240013e-05,6.611290e-08,1.091134e-01,1.076813e-01
1.120000e-12,6.269296e-05,6.806444e-08,1.110138e-01,1.095378e-01
1.130000e-12,6.297405e-05,7.005383e-08,1.129229e-01,1.114022e-01
1.140000e-12,6.324341e-05,7.208121e-08,1.148404e-01,1.132739e-01
1.150000e-12,6.350104e-05,7.414671e-08,1.167659e-01,1.151528e-01
1.160000e-12,6.374695e-05,7.625043e-08,1.186990e-01,1.170383e-01
1.170000e-12,6.398118e-05,7.839245e-08,1.206395e-01,1.189302e-01
1.180000e-12,6.420375e-05,8.057284e-08,1.225869e-01,1.208280e-01
1.190000e-12,6.441471e-05,8.279164e-08,1.245408e-01,1.227315e-01
1.200000e-12,6.461409e-05,8.504889e-08,1.265010e-01,1.246403e-01
1.210000e-12,6.480194e-05,8.734459e-08,1.284671e-01,1.265540e-01
1.220000e-12,6.497834e-05,8.967874e-08,1.304388e-01,1.284722e-01
1.230000e-12,6.514334e-05,9.205130e-08,1.324156e-01,1.303947e-01
1.240000e-12,6.529702e-05,9.446222e-08,1.343972e-01,1.323210e-01
1.250000e-12,6.543945e-05,9.691142e-08,1.363834e-01,1.342508e-01
1.260000e-12,6.557072e-05,9.939883e-08,1.383737e-01,1.361839e-01
1.270000e-12,6.569093e-05,1.019243e-07,1.403678e-01,1.381197e-01
1.280000e-12,6.580017e-05,1.044877e-07,1.423654e-01,1.400580e-01
1.290000e-12,6.589854e-05,1.070890e-07,1.443662e-01,1.419986e-01
1.300000e-12,6.598615e-05,1.097278e-07,1.463698e-01,1.439409e-01
1.310000e-12,6.606312e-05,1.124040e-07,1.483759e-01,1.458848e-01
1.320000e-12,6.612956e-05,1.151174e-07,1.503842e-01,1.478298e-01
1.330000e-12,6.618561e-05,1.178677e-07,1.523943e-01,1.497757e-01
1.340000e-12,6.623140e-05,1.206547e-07,1.544060e-01,1.517222e-01
1.350000e-12,6.626705e-05,1.234781e-07,1.564189e-01,1.536690e-01
1.360000e-12,6.629271e-05,1.263375e-07,1.584328e-01,1.556157e-01
1.370000e-12,6.630852e-05,1.292327e-07,1.604473e-01,1.575620e-01
1.380000e-12,6.631464e-05,1.321632e-07,1.624621e-01,1.595077e-01
1.390000e-12,6.631122e-05,1.351287e-07,1.644770e-01,1.614525e-01
1.400000e-12,6.629841e-05,1.381287e-07,1.664916e-01,1.633960e-01
1.410000e-12,6.627638e-05,1.411629e-07,1.685057e-01,1.653381e-01
1.420000e-12,6.624529e-05,1.442307e-07,1.705190e-01,1.672784e-01
1.430000e-12,6.620532e-05,1.473318e-07,1.725312e-01,1.692166e-01
1.440000e-12,6.615663e-05,1.504655e-07,1.745421e-01,1.711526e-01
1.450000e-12,6.609940e-05,1.536315e-07,1.765513e-01,1.730860e-01
1.460000e-12,6.603381e-05,1.568290e-07,1.785587e-01,1.750167e-01
1.470000e-12,6.596005e-05,1.600577e-07,1.805640e-01,1.769443e-01
1.480000e-12,6.587830e-05,1.633168e-07,1.825669e-01,1.788686e-01
1.490000e-12,6.578874e-05,1.666057e-07,1.845672e-01,1.807894e-01
1.500000e-12,6.569157e-05,1.699239e-07,1.865647e-01,1.827064e-01
1.510000e-12,6.558698e-05,1.732706e-07,1.885591e-01,1.846196e-01
1.520000e-12,6.547516e-05,1.766452e-07,1.905502e-01,1.865285e-01
1.530000e-12,6.535632e-05,1.800470e-07,1.925379e-01,1.884331e-01
1.540000e-12,6.523064e-05,1.834752e-07,1.945218e-01,1.903331e-01
1.550000e-12,6.509834e-05,1.869291e-07,1.965018e-01,1.922284e-01
1.560000e-12,6.495961e-05,1.904079e-07,1.984777e-01,1.941187e-01
1.570000e-12,6.481466e-05,1.939109e-07,2.004492e-01,1.960039e-01
1.580000e-12,6.466369e-05,1.974372e-07,2.024163e-01,1.978838e-01
1.590000e-12,6.450690e-05,2.009861e-07,2.043787e-01,1.997582e-01
1.600000e-12,6.434451e-05,2.045565e-07,2.063363e-01,2.016270e-01
1.610000e-12,6.417672e-05,2.081478e-07,2.082888e-01,2.034900e-01
1.620000e-12,6.400374e-05,2.117589e-07,2.102362e-01,2.053472e-01
1.630000e-12,6.382578e-05,2.153890e-07,2.121782e-01,2.071982e-01
1.640000e-12,6.364304e-05,2.190372e-07,2.141148e-01,2.090431e-01
1.650000e-12,6.345573e-05,2.227025e-07,2.160457e-01,2.108816e-01
1.660000e-12,6.326407e-05,2.263840e-07,2.179709e-01,2.127137e-01
1.670000e-12,6.306826e-05,2.300806e-07,2.198902e-01,2.145393e-01
1.680000e-12,6.286851e-05,2.337914e-07,2.218034e-01,2.163583e-01
1.690000e-12,6.266503e-05,2.375154e-07,2.237106e-01,2.181704e-01
1.700000e-12,6.245803e-05,2.412516e-07,2.256115e-01,2.199758e-01
1.710000e-12,6.224771e-05,2.449988e-07,2.275061e-01,2.217742e-01
1.720000e-12,6.203427e-05,2.487561e-07,2.293943e-01,2.235657e-01
1.730000e-12,6.181793e-05,2.525224e-07,2.312759e-01,2.253500e-01
1.740000e-12,6.159889e-05,2.562966e-07,2.331509e-01,2.271273e-01
1.750000e-12,6.137735e-05,2.600777e-07,2.350192e-01,2.288973e-01
1.760000e-12,6.115351e-05,2.638644e-07,2.368808e-01,2.306602e-01
1.770000e-12,6.092757e-05,2.676558e-07,2.387355e-01,2.324157e-01
1.780000e-12,6.069973e-05,2.714506e-07,2.405833e-01,2.341639e-01
1.790000e-12,6.047019e-05,2.752478e-07,2.424242e-01,2.359048e-01
1.800000e-12,6.023914e-05,2.790462e-07,2.442581e-01,2.376382e-01
1.810000e-12,6.000678e-05,2.828446e-07,2.460849e-01,2.393643e-01
1.820000e-12,5.977329e-05,2.866419e-07,2.479047e-01,2.410830e-01
1.830000e-12,5.953887e-05,2.904369e-07,2.497174e-01,2.427943e-01
1.840000e-12,5.930370e-05,2.942285e-07,2.515229e-01,2.444981e-01
1.850000e-12,5.906797e-05,2.980154e-07,2.533213e-01,2.461945e-01
1.860000e-12,5.883185e-05,3.017966e-07,2.551125e-01,2.478836e-01
1.870000e-12,5.859554e-05,3.055707e-07,2.568965e-01,2.495652e-01
1.880000e-12,5.835920e-05,3.093367e-07,2.586734e-01,2.512395e-01
1.890000e-12,5.812301e-05,3.130933e-07,2.604431e-01,2.529065e-01
1.900000e-12,5.788715e-05,3.168394e-07,2.622056e-01,2.545661e-01
1.910000e-12,5.765178e-05,3.205737e-07,2.639609e-01,2.562185e-01
1.920000e-12,5.741706e-05,3.242951e-07,2.657091e-01,2.578637e-01
1.930000e-12,5.718317e-05,3.280023e-07,2.674502e-01,2.595017e-01
1.940000e-12,5.695026e-05,3.316943e-07,2.691842e-01,2.611326e-01
1.950000e-12,5.671849e-05,3.353697e-07,2.709111e-01,2.627565e-01
1.960000e-12,5.648801e-05,3.390275e-07,2.726311e-01,2.643734e-01
1.970000e-12,5.625897e-05,3.426664e-07,2.743440e-01,2.659833e-01
1.980000e-12,5.603153e-05,3.462853e-07,2.760500e-01,2.675864e-01
1.990000e-12,5.580583e-05,3.498829e-07,2.777491e-01,2.691828e-01
2.000000e-12,5.558200e-05,3.534583e-07,2.794414e-01,2.707724e-01
2.010000e-12,5.536018e-05,3.570101e-07,2.811269e-01,2.723555e-01
2.020000e-12,5.514052e-05,3.605374e-07,2.828058e-01,2.739321e-01
2.030000e-12,5.492313e-05,3.640388e-07,2.844779e-01,2.755022e-01
2.040000e-12,5.470816e-05,3.675134e-07,2.861436e-01,2.770661e-01
2.050000e-12,5.449571e-05,3.709600e-07,2.878027e-01,2.786237e-01
2.060000e-12,5.428592e-05,3.743775e-07,2.894554e-01,2.801753e-01
2.070000e-12,5.407889e-05,3.777648e-07,2.911017e-01,2.817208e-01
2.080000e-12,5.387474e-05,3.811209e-07,2.927419e-01,2.832605e-01
2.090000e-12,5.367358e-05,3.844447e-07,2.943758e-01,2.847944e-01
2.100000e-12,5.347552e-05,3.877352e-07,2.960037e-01,2.863227e-01
2.110000e-12,5.328066e-05,3.909913e-07,2.976257e-01,2.878455e-01
2.120000e-12,5.308909e-05,3.942121e-07,2.992417e-01,2.893629e-01
2.130000e-12,5.290091e-05,3.973965e-07,3.008520e-01,2.908750e-01
2.140000e-12,5.271621e-05,4.005436e-07,3.024567e-01,2.923820e-01
2.150000e-12,5.253507e-05,4.036525e-07,3.040558e-01,2.938840e-01
2.160000e-12,5.235759e-05,4.067221e-07,3.056494e-01,2.953811e-01
2.170000e-12,5.218384e-05,4.097517e-07,3.072377e-01,2.968735e-01
2.180000e-12,5.201389e-05,4.127402e-07,3.088207e-01,2.983614e-01
2.190000e-12,5.184782e-05,4.156870e-07,3.103987e-01,2.998448e-01
2.200000e-12,5.168570e-05,4.185910e-07,3.119717e-01,3.013239e-01
2.210000e-12,5.152758e-05,4.214515e-07,3.135398e-01,3.027989e-01
2.220000e-12,5.137354e-05,4.242677e-07,3.151032e-01,3.042698e-01
2.230000e-12,5.122363e-05,4.270389e-07,3.166619e-01,3.057369e-01
2.240000e-12,5.107790e-05,4.297642e-07,3.182162e-01,3.072004e-01
2.250000e-12,5.093640e-05,4.324431e-07,3.197661e-01,3.086602e-01
2.260000e-12,5.079917e-05,4.350747e-07,3.213118e-01,3.101167e-01
2.270000e-12,5.066627e-05,4.376584e-07,3.228533e-01,3.115699e-01
2.280000e-12,5.053773e-05,4.401936e-07,3.243909e-01,3.130201e-01
2.290000e-12,5.041358e-05,4.426798e-07,3.259247e-01,3.144673e-01
2.300000e-12,5.029387e-05,4.451162e-07,3.274547e-01,3.159118e-01
2.310000e-12,5.017860e-05,4.475024e-07,3.289812e-01,3.173536e-01
2.320000e-12,5.006782e-05,4.498379e-07,3.305043e-01,3.187930e-01
2.330000e-12,4.996154e-05,4.521221e-07,3.320240e-01,3.202300e-01
2.340000e-12,4.985978e-05,4.543546e-07,3.335406e-01,3.216650e-01
2.350000e-12,4.976255e-05,4.565351e-07,3.350542e-01,3.230979e-01
2.360000e-12,4.966987e-05,4.586630e-07,3.365648e-01,3.245290e-01
2.370000e-12,4.958175e-05,4.607381e-07,3.380728e-01,3.259584e-01
2.380000e-12,4.949818e-05,4.627600e-07,3.395781e-01,3.273863e-01
2.390000e-12,4.941918e-05,4.647285e-07,3.410809e-01,3.288128e-01
2.400000e-12,4.934474e-05,4.666432e-07,3.425815e-01,3.302381e-01
2.410000e-12,4.927485e-05,4.685040e-07,3.440798e-01,3.316624e-01
2.420000e-12,4.920951e-05,4.703106e-07,3.455761e-01,3.330858e-01
2.430000e-12,4.914872e-05,4.720629e-07,3.470704e-01,3.345084e-01
2.440000e-12,4.909244e-05,4.737608e-07,3.485630e-01,3.359304e-01
2.450000e-12,4.904068e-05,4.754041e-07,3.500539e-01,3.373520e-01
2.460000e-12,4.899341e-05,4.769929e-07,3.515434e-01,3.387733e-01
2.470000e-12,4.895060e-05,4.785271e-07,3.530314e-01,3.401944e-01
2.480000e-12,4.891224e-05,4.800067e-07,3.545183e-01,3.416155e-01
2.490000e-12,4.887830e-05,4.814317e-07,3.560040e-01,3.430368e-01
2.500000e-12,4.884874e-05,4.828023e-07,3.574888e-01,3.444584e-01
2.510000e-12,4.882354e-05,4.841186e-07,3.589727e-01,3.458803e-01
2.520000e-12,4.880267e-05,4.853807e-07,3.604560e-01,3.473029e-01
2.530000e-12,4.878607e-05,4.865887e-07,3.619386e-01,3.487262e-01
2.540000e-12,4.877372e-05,4.877430e-07,3.634208e-01,3.501503e-01
2.550000e-12,4.876558e-05,4.888438e-07,3.649028e-01,3.515754e-01
2.560000e-12,4.876159e-05,4.898913e-07,3.663845e-01,3.530016e-01
2.570000e-12,4.876172e-05,4.908860e-07,3.678662e-01,3.544291e-01
2.580000e-12,4.876591e-05,4.918280e-07,3.693479e-01,3.558579e-01
2.590000e-12,4.877412e-05,4.927179e-07,3.708298e-01,3.572882e-01
2.600000e-12,4.878629e-05,4.935560e-07,3.723121e-01,3.587202e-01
2.610000e-12,4.880237e-05,4.943429e-07,3.737947e-01,3.601539e-01
2.620000e-12,4.882231e-05,4.950789e-07,3.752779e-01,3.615894e-01
2.630000e-12,4.884605e-05,4.957647e-07,3.767618e-01,3.630270e-01
2.640000e-12,4.887352e-05,4.964007e-07,3.782465e-01,3.644666e-01
2.650000e-12,4.890467e-05,4.969876e-07,3.797320e-01,3.659085e-01
2.660000e-12,4.893944e-05,4.975260e-07,3.812185e-01,3.673527e-01
2.670000e-12,4.897775e-05,4.980165e-07,3.827062e-01,3.687992e-01
2.680000e-12,4.901956e-05,4.984597e-07,3.841951e-01,3.702484e-01
2.690000e-12,4.906478e-05,4.988565e-07,3.856852e-01,3.717001e-01
2.700000e-12,4.911336e-05,4.992075e-07,3.871769e-01,3.731546e-01
2.710000e-12,4.916523e-05,4.995135e-07,3.886700e-01,3.746119e-01
2.720000e-12,4.922030e-05,4.997753e-07,3.901648e-01,3.760721e-01
2.730000e-12,4.927852e-05,4.999937e-07,3.916612e-01,3.775353e-01
2.740000e-12,4.933981e-05,5.001696e-07,3.931595e-01,3.790017e-01
2.750000e-12,4.940410e-05,5.003037e-07,3.946598e-01,3.804712e-01
2.760000e-12,4.947132e-05,5.003972e-07,3.961620e-01,3.819439e-01
2.770000e-12,4.954138e-05,5.004507e-07,3.976662e-01,3.834200e-01
2.780000e-12,4.961422e-05,5.004654e-07,3.991727e-01,3.848995e-01
2.790000e-12,4.968975e-05,5.004421e-07,4.006814e-01,3.863825e-01
2.800000e-12,4.976791e-05,5.003819e-07,4.021925e-01,3.878690e-01
2.810000e-12,4.984861e-05,5.002858e-07,4.037059e-01,3.893592e-01
2.820000e-12,4.993178e-05,5.001547e-07,4.052219e-01,3.908530e-01
2.830000e-12,5.001734e-05,4.999899e-07,4.067404e-01,3.923506e-01
2.840000e-12,5.010521e-05,4.997923e-07,4.082615e-01,3.938519e-01
2.850000e-12,5.019531e-05,4.995630e-07,4.097854e-01,3.953572e-01
2.860000e-12,5.028757e-05,4.993032e-07,4.113120e-01,3.968663e-01
2.870000e-12,5.038190e-05,4.990140e-07,4.128415e-01,3.983794e-01
2.880000e-12,5.047822e-05,4.986965e-07,4.143738e-01,3.998965e-01
2.890000e-12,5.057646e-05,4.983520e-07,4.159091e-01,4.014176e-01
2.900000e-12,5.067653e-05,4.979815e-07,4.174474e-01,4.029428e-01
2.910000e-12,5.077836e-05,4.975862e-07,4.189888e-01,4.044721e-01
2.920000e-12,5.088187e-05,4.971674e-07,4.205333e-01,4.060055e-01
2.930000e-12,5.098698e-05,4.967264e-07,4.220810e-01,4.075432e-01
2.940000e-12,5.109361e-05,4.962642e-07,4.236319e-01,4.090850e-01
2.950000e-12,5.120168e-05,4.957821e-07,4.251860e-01,4.106311e-01
2.960000e-12,5.131111e-05,4.952815e-07,4.267435e-01,4.121814e-01
2.970000e-12,5.142183e-05,4.947635e-07,4.283043e-01,4.137360e-01
2.980000e-12,5.153376e-05,4.942294e-07,4.298685e-01,4.152948e-01
2.990000e-12,5.164681e-05,4.936804e-07,4.314361e-01,4.168580e-01
3.000000e-12,5.176093e-05,4.931179e-07,4.330071e-01,4.184254e-01
3.010000e-12,5.187602e-05,4.925432e-07,4.345816e-01,4.199972e-01
3.020000e-12,5.199202e-05,4.919574e-07,4.361597e-01,4.215733e-01
3.030000e-12,5.210885e-05,4.913618e-07,4.377413e-01,4.231537e-01
3.040000e-12,5.222643e-05,4.907579e-07,4.393264e-01,4.247385e-01
3.050000e-12,5.234470e-05,4.901467e-07,4.409151e-01,4.263275e-01
3.060000e-12,5.246357e-05,4.895297e-07,4.425074e-01,4.279209e-01
