time,"V(L4|XLOADINA)","V(L4|XLOADINB)","V(8000)"
0.000000e+00,0.000000e+00,0.000000e+00,0.000000e+00
1.000000e-14,3.420035e-06,3.419410e-06,6.342880e-08
2.000000e-14,2.309499e-06,2.307891e-06,1.265406e-07
3.000000e-14,2.335538e-06,2.332932e-06,1.894415e-07
4.000000e-14,2.365128e-06,2.361730e-06,2.522762e-07
5.000000e-14,2.398491e-06,2.394608e-06,3.152014e-07
6.000000e-14,2.435802e-06,2.431764e-06,3.783766e-07
7.000000e-14,2.477204e-06,2.473329e-06,4.419607e-07
8.000000e-14,2.522810e-06,2.519393e-06,5.061106e-07
9.000000e-14,2.572715e-06,2.570024e-06,5.709805e-07
1.000000e-13,2.626992e-06,2.625268e-06,6.367220e-07
1.100000e-13,2.685696e-06,2.685159e-06,7.034834e-07
1.200000e-13,2.748864e-06,2.749710e-06,7.714099e-07
1.300000e-13,2.816514e-06,2.818924e-06,8.406435e-07
1.400000e-13,2.888648e-06,2.892787e-06,9.113224e-07
1.500000e-13,2.965255e-06,2.971270e-06,9.835815e-07
1.600000e-13,3.046303e-06,3.054332e-06,1.057552e-06
1.700000e-13,3.131752e-06,3.141918e-06,1.133361e-06
1.800000e-13,3.221542e-06,3.233961e-06,1.211132e-06
1.900000e-13,3.315604e-06,3.330381e-06,1.290985e-06
2.000000e-13,3.413854e-06,3.431090e-06,1.373035e-06
2.100000e-13,3.516199e-06,3.535985e-06,1.457394e-06
2.200000e-13,3.622532e-06,3.644954e-06,1.544167e-06
2.300000e-13,3.732736e-06,3.757878e-06,1.633459e-06
2.400000e-13,3.846685e-06,3.874625e-06,1.725367e-06
2.500000e-13,3.964243e-06,3.995056e-06,1.819986e-06
2.600000e-13,4.085266e-06,4.119026e-06,1.917405e-06
2.700000e-13,4.209599e-06,4.246378e-06,2.017709e-06
2.800000e-13,4.337084e-06,4.376952e-06,2.120979e-06
2.900000e-13,4.467552e-06,4.510579e-06,2.227291e-06
3.000000e-13,4.600829e-06,4.647085e-06,2.336716e-06
3.100000e-13,4.736736e-06,4.786290e-06,2.449321e-06
3.200000e-13,4.875087e-06,4.928010e-06,2.565168e-06
3.300000e-13,5.015693e-06,5.072055e-06,2.684316e-06
3.400000e-13,5.158359e-06,5.218233e-06,2.806816e-06
3.500000e-13,5.302888e-06,5.366345e-06,2.932717e-06
3.600000e-13,5.449078e-06,5.516192e-06,3.062063e-06
3.700000e-13,5.596726e-06,5.667572e-06,3.194893e-06
3.800000e-13,5.745625e-06,5.820279e-06,3.331241e-06
3.900000e-13,5.895569e-06,5.974108e-06,3.471138e-06
4.000000e-13,6.046348e-06,6.128850e-06,3.614609e-06
4.100000e-13,6.197752e-06,6.284297e-06,3.761674e-06
4.200000e-13,6.349571e-06,6.440241e-06,3.912350e-06
4.300000e-13,6.501597e-06,6.596472e-06,4.066649e-06
4.400000e-13,6.653619e-06,6.752782e-06,4.224579e-06
4.500000e-13,6.805430e-06,6.908964e-06,4.386142e-06
4.600000e-13,6.956823e-06,7.064812e-06,4.551338e-06
4.700000e-13,7.107594e-06,7.220121e-06,4.720161e-06
4.800000e-13,7.257539e-06,7.374689e-06,4.892602e-06
4.900000e-13,7.406459e-06,7.528316e-06,5.068647e-06
5.000000e-13,7.554157e-06,7.680805e-06,5.248279e-06
5.100000e-13,7.700440e-06,7.831963e-06,5.431475e-06
5.200000e-13,7.845119e-06,7.981598e-06,5.618211e-06
5.300000e-13,7.988006e-06,8.129525e-06,5.808457e-06
5.400000e-13,8.128922e-06,8.275560e-06,6.002179e-06
5.500000e-13,8.267690e-06,8.419526e-06,6.199342e-06
5.600000e-13,8.404138e-06,8.561250e-06,6.399903e-06
5.700000e-13,8.538099e-06,8.700563e-06,6.603821e-06
5.800000e-13,8.669414e-06,8.837303e-06,6.811047e-06
5.900000e-13,8.797926e-06,8.971311e-06,7.021531e-06
6.000000e-13,8.923488e-06,9.102437e-06,7.235219e-06
6.100000e-13,9.045956e-06,9.230534e-06,7.452054e-06
6.200000e-13,9.165194e-06,9.355463e-06,7.671976e-06
6.300000e-13,9.281073e-06,9.477091e-06,7.894923e-06
6.400000e-13,9.393468e-06,9.595292e-06,8.120828e-06
6.500000e-13,9.502266e-06,9.709946e-06,8.349624e-06
6.600000e-13,9.607356e-06,9.820940e-06,8.581239e-06
6.700000e-13,9.708638e-06,9.928168e-06,8.815600e-06
6.800000e-13,9.806016e-06,1.003153e-05,9.052631e-06
6.900000e-13,9.899405e-06,1.013094e-05,9.292254e-06
7.000000e-13,9.988725e-06,1.022631e-05,9.534388e-06
7.100000e-13,1.007390e-05,1.031756e-05,9.778952e-06
7.200000e-13,1.015488e-05,1.040463e-05,1.002586e-05
7.300000e-13,1.023160e-05,1.048745e-05,1.027503e-05
7.400000e-13,1.030400e-05,1.056597e-05,1.052636e-05
7.500000e-13,1.037206e-05,1.064014e-05,1.077978e-05
7.600000e-13,1.043573e-05,1.070992e-05,1.103519e-05
7.700000e-13,1.049500e-05,1.077529e-05,1.129250e-05
7.800000e-13,1.054984e-05,1.083623e-05,1.155161e-05
7.900000e-13,1.060024e-05,1.089270e-05,1.181243e-05
8.000000e-13,1.064621e-05,1.094471e-05,1.207486e-05
8.100000e-13,1.068775e-05,1.099226e-05,1.233881e-05
8.200000e-13,1.072486e-05,1.103535e-05,1.260418e-05
8.300000e-13,1.075758e-05,1.107399e-05,1.287087e-05
8.400000e-13,1.078592e-05,1.110821e-05,1.313878e-05
8.500000e-13,1.080992e-05,1.113803e-05,1.340781e-05
8.600000e-13,1.082962e-05,1.116350e-05,1.367787e-05
8.700000e-13,1.084508e-05,1.118464e-05,1.394884e-05
8.800000e-13,1.085633e-05,1.120152e-05,1.422064e-05
8.900000e-13,1.086346e-05,1.121418e-05,1.449316e-05
9.000000e-13,1.086651e-05,1.122269e-05,1.476629e-05
9.100000e-13,1.086557e-05,1.122711e-05,1.503995e-05
9.200000e-13,1.086072e-05,1.122751e-05,1.531402e-05
9.300000e-13,1.085203e-05,1.122399e-05,1.558842e-05
9.400000e-13,1.083961e-05,1.121662e-05,1.586303e-05
9.500000e-13,1.082353e-05,1.120548e-05,1.613777e-05
9.600000e-13,1.080392e-05,1.119069e-05,1.641252e-05
9.700000e-13,1.078086e-05,1.117233e-05,1.668721e-05
9.800000e-13,1.075448e-05,1.115051e-05,1.696172e-05
9.900000e-13,1.072488e-05,1.112535e-05,1.723596e-05
1.000000e-12,1.069218e-05,1.109695e-05,1.750984e-05
1.010000e-12,1.065650e-05,1.106543e-05,1.778326e-05
1.020000e-12,1.061798e-05,1.103091e-05,1.805613e-05
1.030000e-12,1.057673e-05,1.099352e-05,1.832835e-05
1.040000e-12,1.053289e-05,1.095339e-05,1.859985e-05
1.050000e-12,1.048659e-05,1.091064e-05,1.887052e-05
1.060000e-12,1.043796e-05,1.086541e-05,1.914028e-05
1.070000e-12,1.038716e-05,1.081783e-05,1.940904e-05
1.080000e-12,1.033431e-05,1.076804e-05,1.967673e-05
1.090000e-12,1.027956e-05,1.071618e-05,1.994324e-05
1.100000e-12,1.022305e-05,1.066239e-05,2.020851e-05
1.110000e-12,1.016492e-05,1.060681e-05,2.047246e-05
1.120000e-12,1.010533e-05,1.054959e-05,2.073500e-05
1.130000e-12,1.004440e-05,1.049086e-05,2.099605e-05
1.140000e-12,9.982298e-06,1.043077e-05,2.125555e-05
1.150000e-12,9.919155e-06,1.036946e-05,2.151343e-05
1.160000e-12,9.855118e-06,1.030709e-05,2.176960e-05
1.170000e-12,9.790332e-06,1.024378e-05,2.202401e-05
1.180000e-12,9.724938e-06,1.017968e-05,2.227658e-05
1.190000e-12,9.659079e-06,1.011494e-05,2.252725e-05
1.200000e-12,9.592893e-06,1.004969e-05,2.277596e-05
1.210000e-12,9.526518e-06,9.984065e-06,2.302266e-05
1.220000e-12,9.460091e-06,9.918212e-06,2.326727e-05
1.230000e-12,9.393745e-06,9.852261e-06,2.350974e-05
1.240000e-12,9.327611e-06,9.786345e-06,2.375003e-05
1.250000e-12,9.261818e-06,9.720593e-06,2.398807e-05
1.260000e-12,9.196491e-06,9.655133e-06,2.422383e-05
1.270000e-12,9.131754e-06,9.590089e-06,2.445725e-05
1.280000e-12,9.067724e-06,9.525583e-06,2.468829e-05
1.290000e-12,9.004518e-06,9.461731e-06,2.491691e-05
1.300000e-12,8.942248e-06,9.398649e-06,2.514306e-05
1.310000e-12,8.881021e-06,9.336448e-06,2.536671e-05
1.320000e-12,8.820942e-06,9.275234e-06,2.558782e-05
1.330000e-12,8.762110e-06,9.215110e-06,2.580637e-05
1.340000e-12,8.704621e-06,9.156175e-06,2.602232e-05
1.350000e-12,8.648566e-06,9.098524e-06,2.623563e-05
1.360000e-12,8.594031e-06,9.042246e-06,2.644630e-05
1.370000e-12,8.541098e-06,8.987427e-06,2.665428e-05
1.380000e-12,8.489843e-06,8.934148e-06,2.685957e-05
1.390000e-12,8.440338e-06,8.882485e-06,2.706213e-05
1.400000e-12,8.392650e-06,8.832508e-06,2.726196e-05
1.410000e-12,8.346841e-06,8.784285e-06,2.745904e-05
1.420000e-12,8.302967e-06,8.737875e-06,2.765336e-05
1.430000e-12,8.261080e-06,8.693335e-06,2.784491e-05
1.440000e-12,8.221225e-06,8.650717e-06,2.803367e-05
1.450000e-12,8.183443e-06,8.610064e-06,2.821965e-05
1.460000e-12,8.147769e-06,8.571418e-06,2.840284e-05
1.470000e-12,8.114234e-06,8.534815e-06,2.858323e-05
1.480000e-12,8.082862e-06,8.500282e-06,2.876083e-05
1.490000e-12,8.053673e-06,8.467847e-06,2.893565e-05
1.500000e-12,8.026680e-06,8.437526e-06,2.910768e-05
1.510000e-12,8.001893e-06,8.409336e-06,2.927693e-05
1.520000e-12,7.979314e-06,8.383284e-06,2.944341e-05
1.530000e-12,7.958943e-06,8.359374e-06,2.960713e-05
1.540000e-12,7.940773e-06,8.337605e-06,2.976811e-05
1.550000e-12,7.924791e-06,8.317970e-06,2.992635e-05
1.560000e-12,7.910981e-06,8.300459e-06,3.008188e-05
1.570000e-12,7.899321e-06,8.285054e-06,3.023470e-05
1.580000e-12,7.889784e-06,8.271734e-06,3.038485e-05
1.590000e-12,7.882341e-06,8.260473e-06,3.053233e-05
1.600000e-12,7.876953e-06,8.251242e-06,3.067718e-05
1.610000e-12,7.873583e-06,8.244004e-06,3.081942e-05
1.620000e-12,7.872184e-06,8.238720e-06,3.095907e-05
1.630000e-12,7.872708e-06,8.235347e-06,3.109616e-05
1.640000e-12,7.875102e-06,8.233837e-06,3.123072e-05
1.650000e-12,7.879311e-06,8.234137e-06,3.136278e-05
1.660000e-12,7.885272e-06,8.236193e-06,3.149237e-05
1.670000e-12,7.892923e-06,8.239945e-06,3.161952e-05
1.680000e-12,7.902195e-06,8.245330e-06,3.174427e-05
1.690000e-12,7.913019e-06,8.252281e-06,3.186664e-05
1.700000e-12,7.925320e-06,8.260730e-06,3.198669e-05
1.710000e-12,7.939023e-06,8.270605e-06,3.210444e-05
1.720000e-12,7.954047e-06,8.281829e-06,3.221993e-05
1.730000e-12,7.970311e-06,8.294325e-06,3.233320e-05
1.740000e-12,7.987732e-06,8.308013e-06,3.244430e-05
1.750000e-12,8.006223e-06,8.322811e-06,3.255325e-05
1.760000e-12,8.025695e-06,8.338633e-06,3.266011e-05
1.770000e-12,8.046061e-06,8.355393e-06,3.276492e-05
1.780000e-12,8.067227e-06,8.373004e-06,3.286771e-05
1.790000e-12,8.089103e-06,8.391376e-06,3.296854e-05
1.800000e-12,8.111594e-06,8.410418e-06,3.306745e-05
1.810000e-12,8.134607e-06,8.430038e-06,3.316447e-05
1.820000e-12,8.158046e-06,8.450144e-06,3.325967e-05
1.830000e-12,8.181816e-06,8.470643e-06,3.335308e-05
1.840000e-12,8.205821e-06,8.491440e-06,3.344474e-05
1.850000e-12,8.229966e-06,8.512442e-06,3.353472e-05
1.860000e-12,8.254155e-06,8.533555e-06,3.362304e-05
1.870000e-12,8.278293e-06,8.554686e-06,3.370977e-05
1.880000e-12,8.302286e-06,8.575740e-06,3.379494e-05
1.890000e-12,8.326040e-06,8.596627e-06,3.387860e-05
1.900000e-12,8.349462e-06,8.617252e-06,3.396081e-05
1.910000e-12,8.372460e-06,8.637526e-06,3.404160e-05
1.920000e-12,8.394945e-06,8.657359e-06,3.412103e-05
1.930000e-12,8.416828e-06,8.676662e-06,3.419915e-05
1.940000e-12,8.438022e-06,8.695348e-06,3.427599e-05
1.950000e-12,8.458441e-06,8.713332e-06,3.435162e-05
1.960000e-12,8.478003e-06,8.730531e-06,3.442607e-05
1.970000e-12,8.496627e-06,8.746864e-06,3.449939e-05
1.980000e-12,8.514235e-06,8.762251e-06,3.457163e-05
1.990000e-12,8.530750e-06,8.776616e-06,3.464283e-05
2.000000e-12,8.546100e-06,8.789884e-06,3.471304e-05
2.010000e-12,8.560214e-06,8.801984e-06,3.478231e-05
2.020000e-12,8.573025e-06,8.812848e-06,3.485068e-05
2.030000e-12,8.584468e-06,8.822409e-06,3.491820e-05
2.040000e-12,8.594484e-06,8.830605e-06,3.498490e-05
2.050000e-12,8.603013e-06,8.837377e-06,3.505084e-05
2.060000e-12,8.610001e-06,8.842667e-06,3.511605e-05
2.070000e-12,8.615399e-06,8.846423e-06,3.518059e-05
2.080000e-12,8.619158e-06,8.848596e-06,3.524448e-05
2.090000e-12,8.621235e-06,8.849140e-06,3.530778e-05
2.100000e-12,8.621591e-06,8.848013e-06,3.537051e-05
2.110000e-12,8.620190e-06,8.845176e-06,3.543273e-05
2.120000e-12,8.616999e-06,8.840594e-06,3.549447e-05
2.130000e-12,8.611992e-06,8.834238e-06,3.555577e-05
2.140000e-12,8.605143e-06,8.826080e-06,3.561667e-05
2.150000e-12,8.596433e-06,8.816097e-06,3.567719e-05
2.160000e-12,8.585846e-06,8.804270e-06,3.573739e-05
2.170000e-12,8.573371e-06,8.790585e-06,3.579730e-05
2.180000e-12,8.558999e-06,8.775030e-06,3.585694e-05
2.190000e-12,8.542727e-06,8.757599e-06,3.591635e-05
2.200000e-12,8.524556e-06,8.738288e-06,3.597557e-05
2.210000e-12,8.504490e-06,8.717100e-06,3.603463e-05
2.220000e-12,8.482537e-06,8.694038e-06,3.609355e-05
2.230000e-12,8.458711e-06,8.669113e-06,3.615237e-05
2.240000e-12,8.433027e-06,8.642338e-06,3.621112e-05
2.250000e-12,8.405507e-06,8.613729e-06,3.626982e-05
2.260000e-12,8.376174e-06,8.583308e-06,3.632850e-05
2.270000e-12,8.345057e-06,8.551099e-06,3.638718e-05
2.280000e-12,8.312189e-06,8.517131e-06,3.644590e-05
2.290000e-12,8.277603e-06,8.481437e-06,3.650467e-05
2.300000e-12,8.241341e-06,8.444051e-06,3.656352e-05
2.310000e-12,8.203444e-06,8.405014e-06,3.662247e-05
2.320000e-12,8.163958e-06,8.364368e-06,3.668154e-05
2.330000e-12,8.122934e-06,8.322160e-06,3.674076e-05
2.340000e-12,8.080424e-06,8.278438e-06,3.680013e-05
2.350000e-12,8.036483e-06,8.233256e-06,3.685969e-05
2.360000e-12,7.991170e-06,8.186670e-06,3.691943e-05
2.370000e-12,7.944548e-06,8.138737e-06,3.697940e-05
2.380000e-12,7.896679e-06,8.089519e-06,3.703958e-05
2.390000e-12,7.847632e-06,8.039081e-06,3.710001e-05
2.400000e-12,7.797475e-06,7.987489e-06,3.716070e-05
2.410000e-12,7.746280e-06,7.934811e-06,3.722165e-05
2.420000e-12,7.694122e-06,7.881120e-06,3.728288e-05
2.430000e-12,7.641074e-06,7.826488e-06,3.734440e-05
2.440000e-12,7.587217e-06,7.770991e-06,3.740621e-05
2.450000e-12,7.532628e-06,7.714707e-06,3.746834e-05
2.460000e-12,7.477389e-06,7.657713e-06,3.753078e-05
2.470000e-12,7.421582e-06,7.600090e-06,3.759354e-05
2.480000e-12,7.365291e-06,7.541921e-06,3.765662e-05
2.490000e-12,7.308600e-06,7.483287e-06,3.772004e-05
2.500000e-12,7.251595e-06,7.424273e-06,3.778380e-05
2.510000e-12,7.194363e-06,7.364964e-06,3.784789e-05
2.520000e-12,7.136989e-06,7.305446e-06,3.791233e-05
2.530000e-12,7.079562e-06,7.245803e-06,3.797711e-05
2.540000e-12,7.022168e-06,7.186123e-06,3.804224e-05
2.550000e-12,6.964895e-06,7.126493e-06,3.810771e-05
2.560000e-12,6.907832e-06,7.066999e-06,3.817352e-05
2.570000e-12,6.851064e-06,7.007727e-06,3.823968e-05
2.580000e-12,6.794678e-06,6.948765e-06,3.830618e-05
2.590000e-12,6.738762e-06,6.890197e-06,3.837302e-05
2.600000e-12,6.683399e-06,6.832109e-06,3.844019e-05
2.610000e-12,6.628676e-06,6.774586e-06,3.850770e-05
2.620000e-12,6.574674e-06,6.717712e-06,3.857553e-05
2.630000e-12,6.521477e-06,6.661568e-06,3.864368e-05
2.640000e-12,6.469165e-06,6.606236e-06,3.871215e-05
2.650000e-12,6.417817e-06,6.551796e-06,3.878093e-05
2.660000e-12,6.367511e-06,6.498326e-06,3.885000e-05
2.670000e-12,6.318324e-06,6.445903e-06,3.891938e-05
2.680000e-12,6.270329e-06,6.394603e-06,3.898903e-05
2.690000e-12,6.223597e-06,6.344498e-06,3.905897e-05
2.700000e-12,6.178199e-06,6.295659e-06,3.912917e-05
2.710000e-12,6.134202e-06,6.248154e-06,3.919964e-05
2.720000e-12,6.091670e-06,6.202051e-06,3.927035e-05
2.730000e-12,6.050667e-06,6.157414e-06,3.934130e-05
2.740000e-12,6.011252e-06,6.114304e-06,3.941248e-05
2.750000e-12,5.973482e-06,6.072779e-06,3.948388e-05
2.760000e-12,5.937411e-06,6.032897e-06,3.955548e-05
2.770000e-12,5.903090e-06,5.994710e-06,3.962728e-05
2.780000e-12,5.870568e-06,5.958270e-06,3.969926e-05
2.790000e-12,5.839890e-06,5.923623e-06,3.977141e-05
2.800000e-12,5.811097e-06,5.890813e-06,3.984372e-05
2.810000e-12,5.784228e-06,5.859883e-06,3.991617e-05
2.820000e-12,5.759320e-06,5.830869e-06,3.998876e-05
2.830000e-12,5.736402e-06,5.803808e-06,4.006146e-05
2.840000e-12,5.715505e-06,5.778729e-06,4.013427e-05
2.850000e-12,5.696654e-06,5.755662e-06,4.020718e-05
2.860000e-12,5.679870e-06,5.734631e-06,4.028016e-05
2.870000e-12,5.665171e-06,5.715657e-06,4.035321e-05
2.880000e-12,5.652573e-06,5.698759e-06,4.042631e-05
2.890000e-12,5.642086e-06,5.683949e-06,4.049945e-05
2.900000e-12,5.633719e-06,5.671240e-06,4.057262e-05
2.910000e-12,5.627474e-06,5.660638e-06,4.064579e-05
2.920000e-12,5.623354e-06,5.652147e-06,4.071897e-05
2.930000e-12,5.621354e-06,5.645767e-06,4.079212e-05
2.940000e-12,5.621469e-06,5.641496e-06,4.086525e-05
2.950000e-12,5.623689e-06,5.639326e-06,4.093833e-05
2.960000e-12,5.628000e-06,5.639248e-06,4.101136e-05
2.970000e-12,5.634386e-06,5.641248e-06,4.108431e-05
2.980000e-12,5.642826e-06,5.645310e-06,4.115719e-05
2.990000e-12,5.653297e-06,5.651412e-06,4.122996e-05
3.000000e-12,5.665773e-06,5.659532e-06,4.130262e-05
3.010000e-12,5.680223e-06,5.669643e-06,4.137516e-05
3.020000e-12,5.696615e-06,5.681715e-06,4.144756e-05
3.030000e-12,5.714913e-06,5.695716e-06,4.151982e-05
3.040000e-12,5.735077e-06,5.711609e-06,4.159191e-05
3.050000e-12,5.757066e-06,5.729355e-06,4.166383e-05
3.060000e-12,5.780835e-06,5.748913e-06,4.173556e-05
3.070000e-12,5.806337e-06,5.770238e-06,4.180709e-05
3.080000e-12,5.833522e-06,5.793284e-06,4.187842e-05
3.090000e-12,5.862336e-06,5.818000e-06,4.194952e-05
3.100000e-12,5.892726e-06,5.844334e-06,4.202039e-05
3.110000e-12,5.924634e-06,5.872232e-06,4.209102e-05
3.120000e-12,5.958000e-06,5.901636e-06,4.216140e-05
3.130000e-12,5.992763e-06,5.932488e-06,4.223151e-05
3.140000e-12,6.028860e-06,5.964726e-06,4.230135e-05
3.150000e-12,6.066225e-06,5.998289e-06,4.237090e-05
3.160000e-12,6.104792e-06,6.033110e-06,4.244016e-05
3.170000e-12,6.144491e-06,6.069123e-06,4.250912e-05
3.180000e-12,6.185252e-06,6.106260e-06,4.257777e-05
3.190000e-12,6.227005e-06,6.144452e-06,4.264610e-05
3.200000e-12,6.269677e-06,6.183629e-06,4.271410e-05
3.210000e-12,6.313194e-06,6.223717e-06,4.278176e-05
3.220000e-12,6.357482e-06,6.264644e-06,4.284908e-05
3.230000e-12,6.402465e-06,6.306337e-06,4.291606e-05
3.240000e-12,6.448068e-06,6.348720e-06,4.298267e-05
3.250000e-12,6.494214e-06,6.391718e-06,4.304892e-05
3.260000e-12,6.540826e-06,6.435256e-06,4.311480e-05
3.270000e-12,6.587827e-06,6.479257e-06,4.318031e-05
3.280000e-12,6.635141e-06,6.523645e-06,4.324543e-05
3.290000e-12,6.682689e-06,6.568343e-06,4.331017e-05
3.300000e-12,6.730396e-06,6.613276e-06,4.337452e-05
3.310000e-12,6.778184e-06,6.658367e-06,4.343847e-05
3.320000e-12,6.825977e-06,6.703540e-06,4.350202e-05
3.330000e-12,6.873700e-06,6.748719e-06,4.356517e-05
3.340000e-12,6.921277e-06,6.793830e-06,4.362791e-05
3.350000e-12,6.968636e-06,6.838799e-06,4.369025e-05
3.360000e-12,7.015702e-06,6.883551e-06,4.375217e-05
3.370000e-12,7.062403e-06,6.928015e-06,4.381367e-05
3.380000e-12,7.108670e-06,6.972120e-06,4.387476e-05
3.390000e-12,7.154431e-06,7.015795e-06,4.393543e-05
3.400000e-12,7.199620e-06,7.058971e-06,4.399567e-05
3.410000e-12,7.244169e-06,7.101581e-06,4.405550e-05
3.420000e-12,7.288014e-06,7.143559e-06,4.411490e-05
3.430000e-12,7.331091e-06,7.184841e-06,4.417388e-05
3.440000e-12,7.373339e-06,7.225364e-06,4.423244e-05
3.450000e-12,7.414699e-06,7.265068e-06,4.429058e-05
3.460000e-12,7.455113e-06,7.303893e-06,4.434829e-05
3.470000e-12,7.494526e-06,7.341783e-06,4.440558e-05
3.480000e-12,7.532885e-06,7.378683e-06,4.446245e-05
3.490000e-12,7.570140e-06,7.414540e-06,4.451890e-05
3.500000e-12,7.606241e-06,7.449305e-06,4.457493e-05
3.510000e-12,7.641143e-06,7.482930e-06,4.463055e-05
3.520000e-12,7.674803e-06,7.515368e-06,4.468575e-05
3.530000e-12,7.707179e-06,7.546577e-06,4.474054e-05
3.540000e-12,7.738232e-06,7.576517e-06,4.479492e-05
3.550000e-12,7.767929e-06,7.605149e-06,4.484889e-05
3.560000e-12,7.796234e-06,7.632438e-06,4.490246e-05
3.570000e-12,7.823118e-06,7.658351e-06,4.495562e-05
3.580000e-12,7.848554e-06,7.682859e-06,4.500839e-05
3.590000e-12,7.872516e-06,7.705934e-06,4.506077e-05
3.600000e-12,7.894982e-06,7.727551e-06,4.511275e-05
3.610000e-12,7.915935e-06,7.747689e-06,4.516435e-05
3.620000e-12,7.935356e-06,7.766329e-06,4.521557e-05
3.630000e-12,7.953233e-06,7.783454e-06,4.526641e-05
3.640000e-12,7.969556e-06,7.799052e-06,4.531687e-05
3.650000e-12,7.984315e-06,7.813112e-06,4.536697e-05
3.660000e-12,7.997508e-06,7.825626e-06,4.541670e-05
3.670000e-12,8.009130e-06,7.836590e-06,4.546608e-05
3.680000e-12,8.019184e-06,7.846000e-06,4.551510e-05
3.690000e-12,8.027672e-06,7.853859e-06,4.556377e-05
3.700000e-12,8.034601e-06,7.860169e-06,4.561209e-05
3.710000e-12,8.039980e-06,7.864937e-06,4.566008e-05
3.720000e-12,8.043820e-06,7.868171e-06,4.570774e-05
3.730000e-12,8.046136e-06,7.869882e-06,4.575507e-05
3.740000e-12,8.046944e-06,7.870086e-06,4.580208e-05
3.750000e-12,8.046264e-06,7.868798e-06,4.584877e-05
3.760000e-12,8.044118e-06,7.866038e-06,4.589515e-05
3.770000e-12,8.040530e-06,7.861828e-06,4.594123e-05
3.780000e-12,8.035526e-06,7.856190e-06,4.598701e-05
3.790000e-12,8.029136e-06,7.849153e-06,4.603249e-05
3.800000e-12,8.021391e-06,7.840743e-06,4.607769e-05
3.810000e-12,8.012323e-06,7.830992e-06,4.612261e-05
3.820000e-12,8.001969e-06,7.819933e-06,4.616726e-05
