time,"V(3,0)","V(6,0)","V(7,0)"
0.000000e+00,0.000000e+00,0.000000e+00,2.740358e-20
2.500000e-13,1.540709e-05,1.540709e-05,1.803077e-06
5.000000e-13,2.369372e-05,2.369372e-05,5.669118e-06
7.500000e-13,3.652808e-05,3.652808e-05,1.117038e-05
1.000000e-12,4.767340e-05,4.767340e-05,1.713039e-05
1.250000e-12,5.497168e-05,5.497168e-05,2.209732e-05
1.500000e-12,5.777873e-05,5.777873e-05,2.498102e-05
1.750000e-12,5.680382e-05,5.680382e-05,2.552617e-05
2.000000e-12,5.357484e-05,5.357484e-05,2.435410e-05
2.250000e-12,4.979685e-05,4.979685e-05,2.258686e-05
2.500000e-12,4.682707e-05,4.682707e-05,2.129600e-05
2.750000e-12,4.539509e-05,4.539509e-05,2.107425e-05
3.000000e-12,4.558564e-05,4.558564e-05,2.191130e-05
3.250000e-12,4.701486e-05,4.701486e-05,2.336454e-05
3.500000e-12,4.908964e-05,4.908964e-05,2.487340e-05
3.750000e-12,5.124637e-05,5.124637e-05,2.603387e-05
4.000000e-12,5.310345e-05,5.310345e-05,2.671922e-05
4.250000e-12,5.451028e-05,5.451028e-05,2.703960e-05
4.500000e-12,5.551354e-05,5.551354e-05,2.721231e-05
4.750000e-12,5.628046e-05,5.628046e-05,2.743314e-05
5.000000e-12,5.701711e-05,5.701711e-05,2.780770e-05
5.250000e-12,4.249944e-05,4.249944e-05,2.654911e-05
5.500000e-12,3.466867e-05,3.466867e-05,2.321116e-05
5.750000e-12,2.148398e-05,2.148398e-05,1.799010e-05
6.000000e-12,8.906536e-06,8.906536e-06,1.185256e-05
6.250000e-12,-8.236384e-07,-8.236384e-07,6.194173e-06
6.500000e-12,-6.616065e-06,-6.616065e-06,2.254404e-06
6.750000e-12,-8.513478e-06,-8.513478e-06,5.916106e-07
7.000000e-12,-7.397421e-06,-7.397421e-06,9.094707e-07
7.250000e-12,-4.560912e-06,-4.560912e-06,2.296718e-06
7.500000e-12,-1.287542e-06,-1.287542e-06,3.707657e-06
7.750000e-12,1.454410e-06,1.454410e-06,4.410209e-06
8.000000e-12,3.150056e-06,3.150056e-06,4.195863e-06
8.250000e-12,3.717006e-06,3.717006e-06,3.308955e-06
8.500000e-12,3.379176e-06,3.379176e-06,2.200283e-06
8.750000e-12,2.504282e-06,2.504282e-06,1.267363e-06
9.000000e-12,1.462162e-06,1.462162e-06,7.041613e-07
9.250000e-12,5.346249e-07,5.346249e-07,4.936715e-07
9.500000e-12,-1.191351e-07,-1.191351e-07,4.974076e-07
9.750000e-12,-4.548107e-07,-4.548107e-07,5.644601e-07
1.000000e-11,-5.120505e-07,-5.120505e-07,6.006464e-07
1.025000e-11,-3.768555e-07,-3.768555e-07,5.803590e-07
1.050000e-11,-1.478790e-07,-1.478790e-07,5.197929e-07
1.075000e-11,8.835443e-08,8.835443e-08,4.430509e-07
1.100000e-11,2.719253e-07,2.719253e-07,3.633425e-07
1.125000e-11,3.742698e-07,3.742698e-07,2.831781e-07
1.150000e-11,3.949477e-07,3.949477e-07,2.038967e-07
1.175000e-11,3.530691e-07,3.530691e-07,1.324778e-07
1.200000e-11,2.765964e-07,2.765964e-07,7.999330e-08
1.225000e-11,1.926523e-07,1.926523e-07,5.429944e-08
1.250000e-11,1.210714e-07,1.210714e-07,5.367836e-08
1.275000e-11,1.751514e-07,7.223350e-08,6.799509e-08
1.300000e-11,4.469247e-07,4.824967e-08,8.550456e-08
1.325000e-11,1.157158e-06,4.621934e-08,1.026475e-07
1.350000e-11,2.570433e-06,6.173372e-08,1.304368e-07
1.375000e-11,4.823312e-06,9.103698e-08,1.917690e-07
1.400000e-11,8.093195e-06,1.319614e-07,3.138745e-07
1.425000e-11,1.224588e-05,1.833300e-07,5.161336e-07
1.450000e-11,1.696830e-05,2.437577e-07,8.000722e-07
1.475000e-11,2.183526e-05,3.107515e-07,1.146582e-06
1.500000e-11,2.630954e-05,3.803543e-07,1.519969e-06
1.525000e-11,3.004214e-05,4.477893e-07,1.879111e-06
1.550000e-11,3.295436e-05,5.088298e-07,2.191440e-06
1.575000e-11,3.539975e-05,5.615885e-07,2.446159e-06
1.600000e-11,3.821953e-05,6.083144e-07,2.663686e-06
1.625000e-11,4.269782e-05,6.567581e-07,2.899433e-06
1.650000e-11,5.033852e-05,7.205204e-07,3.239988e-06
1.675000e-11,6.248965e-05,8.177682e-07,3.789944e-06
1.700000e-11,8.021760e-05,9.687246e-07,4.653930e-06
1.725000e-11,1.046696e-04,1.193844e-06,5.926843e-06
1.750000e-11,1.377480e-04,1.514955e-06,7.705693e-06
1.775000e-11,1.827718e-04,1.960338e-06,1.012609e-05
1.800000e-11,2.436985e-04,2.569845e-06,1.339517e-05
1.825000e-11,3.218533e-04,3.390156e-06,1.775758e-05
1.850000e-11,4.175163e-04,4.464914e-06,2.342947e-05
1.875000e-11,5.405937e-04,5.850587e-06,3.069922e-05
1.900000e-11,7.131943e-04,7.664595e-06,4.022497e-05
1.925000e-11,9.458604e-04,1.009406e-05,5.306191e-05
1.950000e-11,1.147201e-03,1.314271e-05,6.904281e-05
1.975000e-11,1.110309e-03,1.613181e-05,8.374961e-05
2.000000e-11,8.135523e-04,1.780785e-05,8.956676e-05
2.025000e-11,4.017754e-04,1.709715e-05,8.078639e-05
2.050000e-11,1.979863e-05,1.379002e-05,5.781246e-05
2.075000e-11,-2.402132e-04,8.693282e-06,2.744509e-05
2.100000e-11,-3.408866e-04,3.258832e-06,-3.885255e-07
2.125000e-11,-2.977725e-04,-1.053985e-06,-1.730348e-05
2.150000e-11,-1.680166e-04,-3.362508e-06,-2.009754e-05
2.175000e-11,-2.146402e-05,-3.621528e-06,-1.159919e-05
2.200000e-11,8.745239e-05,-2.473371e-06,1.483279e-06
2.225000e-11,1.341038e-04,-8.304575e-07,1.223535e-05
2.250000e-11,1.230293e-04,5.497793e-07,1.660261e-05
2.275000e-11,7.691819e-05,1.399474e-06,1.443418e-05
2.300000e-11,2.276224e-05,1.816442e-06,8.457993e-06
2.325000e-11,-1.870267e-05,2.248349e-06,2.210509e-06
2.350000e-11,-3.788180e-05,3.218380e-06,-1.806440e-06
2.375000e-11,-3.593016e-05,5.037471e-06,-2.926238e-06
2.400000e-11,-2.086165e-05,7.955423e-06,-1.992629e-06
2.425000e-11,-2.509431e-06,1.185490e-05,-4.121246e-07
2.450000e-11,1.153924e-05,1.643643e-05,7.485822e-07
2.475000e-11,1.786775e-05,2.130471e-05,1.173917e-06
2.500000e-11,1.700533e-05,2.595254e-05,1.162985e-06
2.525000e-11,1.185360e-05,3.003188e-05,1.200307e-06
2.550000e-11,5.801371e-06,3.342224e-05,1.568758e-06
2.575000e-11,1.325092e-06,3.640766e-05,2.216568e-06
2.600000e-11,-5.818077e-07,3.976811e-05,2.884674e-06
2.625000e-11,-2.299387e-07,4.476989e-05,3.348906e-06
2.650000e-11,1.365972e-06,5.295744e-05,3.601843e-06
2.675000e-11,3.134819e-06,6.578508e-05,3.875667e-06
2.700000e-11,4.382610e-06,8.451647e-05,4.524728e-06
2.725000e-11,4.923940e-06,1.106089e-04,5.869604e-06
2.750000e-11,4.972117e-06,1.464123e-04,8.111426e-06
2.775000e-11,4.921107e-06,1.957714e-04,1.136561e-05
2.800000e-11,5.143263e-06,2.629038e-04,1.576606e-05
2.825000e-11,5.868973e-06,3.492270e-04,2.152193e-05
2.850000e-11,7.170033e-06,4.572554e-04,2.893823e-05
2.875000e-11,9.045207e-06,6.015042e-04,3.858068e-05
2.900000e-11,1.155298e-05,8.054944e-04,5.155271e-05
2.925000e-11,1.482746e-05,1.055477e-03,6.912973e-05
2.950000e-11,1.869385e-05,1.192417e-03,9.016605e-05
2.975000e-11,2.222656e-05,1.041412e-03,1.085888e-04
3.000000e-11,2.406537e-05,6.755453e-04,1.160079e-04
3.025000e-11,2.319077e-05,2.550587e-04,1.070398e-04
3.050000e-11,1.950038e-05,-9.290235e-05,8.275670e-05
3.075000e-11,1.388262e-05,-2.980945e-04,5.036196e-05
3.100000e-11,7.853892e-06,-3.427779e-04,1.994475e-05
3.125000e-11,2.966599e-06,-2.595651e-04,1.736503e-07
3.150000e-11,2.359616e-07,-1.140704e-04,-5.141135e-06
3.175000e-11,-1.739269e-07,2.607170e-05,1.879691e-06
3.200000e-11,1.118747e-06,1.155926e-04,1.485845e-05
3.225000e-11,3.091825e-06,1.406864e-04,2.653642e-05
3.250000e-11,4.785448e-06,1.139195e-04,3.199083e-05
3.275000e-11,5.632827e-06,6.120550e-05,3.017608e-05
3.300000e-11,5.549606e-06,8.539215e-06,2.340938e-05
3.325000e-11,4.812252e-06,-2.667995e-05,1.550407e-05
3.350000e-11,3.835704e-06,-3.860670e-05,9.713320e-06
3.375000e-11,2.968959e-06,-3.119338e-05,7.445740e-06
3.400000e-11,2.385367e-06,-1.369481e-05,8.136111e-06
3.425000e-11,2.082774e-06,4.259131e-06,1.004462e-05
3.450000e-11,1.957070e-06,1.615931e-05,1.138839e-05
3.475000e-11,1.891650e-06,1.986648e-05,1.119750e-05
3.500000e-11,1.816733e-06,1.688343e-05,9.564164e-06
3.525000e-11,1.721743e-06,1.056733e-05,7.321072e-06
3.550000e-11,1.631751e-06,4.285048e-06,5.444291e-06
3.575000e-11,1.572734e-06,1.964956e-07,4.533204e-06
3.600000e-11,1.548198e-06,-1.106976e-06,4.597580e-06
3.625000e-11,1.536978e-06,-2.660041e-07,5.181116e-06
3.650000e-11,1.507949e-06,1.522180e-06,5.683249e-06
3.675000e-11,1.439193e-06,3.151949e-06,5.678484e-06
3.700000e-11,1.329702e-06,3.995469e-06,5.080558e-06
3.725000e-11,1.198380e-06,3.969828e-06,4.108642e-06
3.750000e-11,1.072964e-06,3.369537e-06,3.116906e-06
3.775000e-11,9.761722e-07,2.610964e-06,2.399227e-06
3.800000e-11,9.164083e-07,2.019782e-06,2.066507e-06
3.825000e-11,8.866701e-07,1.731006e-06,2.037364e-06
3.850000e-11,8.706343e-07,1.702761e-06,2.120267e-06
3.875000e-11,8.516483e-07,1.798686e-06,2.127364e-06
3.900000e-11,8.198705e-07,1.881106e-06,1.959399e-06
3.925000e-11,7.746994e-07,1.872078e-06,1.629023e-06
3.950000e-11,7.224728e-07,1.767208e-06,1.226447e-06
3.975000e-11,6.716282e-07,1.612141e-06,8.574839e-07
